hour, t(sec), V1, VAngle1, V2, VAngle2, V3, VAngle3, V4, VAngle4, I1, IAngle1, I2, IAngle2, I3, IAngle3, I4, IAngle4
1, 0.00000, 215.608, -33.6296, 215.607, -153.63, 215.605, 86.3702, 3.40507E-010, 89.7188, 58.4628, 124.111, 58.4628, 4.11058, 58.4627, -115.889, 0.000575, 100.952
2, 0.00000, 216.984, -33.3148, 216.984, -153.315, 216.982, 86.685, 2.83568E-010, 89.529, 53.2375, 124.539, 53.2375, 4.53856, 53.2374, -115.461, 0.000477446, 100.852
3, 0.00000, 217.931, -33.0952, 217.931, -153.096, 217.929, 86.9046, 2.46865E-010, 89.3894, 49.6126, 124.829, 49.6126, 4.82856, 49.6125, -115.171, 0.000415321, 100.751
4, 0.00000, 218.128, -33.05, 218.127, -153.051, 218.126, 86.9498, 2.3937E-010, 89.3126, 48.8643, 124.886, 48.8643, 4.88551, 48.8643, -115.114, 0.00040302, 100.73
5, 0.00000, 218.256, -33.0206, 218.255, -153.021, 218.253, 86.9793, 2.34736E-010, 89.3063, 48.3759, 124.931, 48.3759, 4.93025, 48.3759, -115.069, 0.000395156, 100.707
6, 0.00000, 217.993, -33.0292, 217.992, -153.03, 217.99, 86.9706, 2.55649E-010, 89.6429, 50.605, 124.867, 50.6049, 4.8661, 50.6049, -115.133, 0.000430527, 100.943
7, 0.00000, 218.422, -32.6493, 218.421, -152.65, 218.419, 87.3505, 2.88458E-010, 90.5872, 54.1783, 125.049, 54.1783, 5.04843, 54.1782, -114.951, 0.00048621, 101.89
8, 0.00000, 220.549, -31.5957, 220.548, -151.596, 220.546, 88.4042, 2.69971E-010, 91.9077, 52.8064, 125.971, 52.8064, 5.97053, 52.8064, -114.029, 0.000454695, 103.25
9, 0.00000, 220.757, -31.0232, 220.756, -151.024, 220.755, 88.9767, 3.0322E-010, 93.2291, 56.2854, 126.321, 56.2854, 6.32051, 56.2853, -113.679, 0.000511027, 104.509
10, 0.00000, 219.931, -30.8221, 219.93, -150.823, 219.928, 89.1777, 3.64632E-010, 94.2445, 61.9725, 126.269, 61.9724, 6.26802, 61.9723, -113.731, 0.000615745, 105.452
11, 0.00000, 219.718, -30.6879, 219.717, -150.689, 219.715, 89.312, 3.84868E-010, 94.6469, 63.712, 126.315, 63.7119, 6.31439, 63.7118, -113.685, 0.00064966, 105.846
12, 0.00000, 218.363, -31.0346, 218.362, -151.035, 218.36, 88.9652, 4.51853E-010, 94.6745, 69.07, 125.83, 69.07, 5.82962, 69.0699, -114.17, 0.000763465, 105.837
13, 0.00000, 216.87, -31.6439, 216.868, -151.645, 216.866, 88.3559, 5.13271E-010, 94.2524, 73.5257, 125.097, 73.5257, 5.09608, 73.5256, -114.903, 0.00086739, 105.366
14, 0.00000, 217.337, -31.8529, 217.336, -151.854, 217.334, 88.1469, 4.601E-010, 93.6021, 69.5097, 125.026, 69.5096, 5.02575, 69.5095, -114.973, 0.000777843, 104.733
15, 0.00000, 216.145, -32.5068, 216.144, -152.508, 216.141, 87.493, 4.81659E-010, 92.7788, 70.8485, 124.394, 70.8485, 4.39351, 70.8484, -115.606, 0.00081373, 103.914
16, 0.00000, 215.312, -33.0721, 215.311, -153.073, 215.309, 86.9277, 4.71706E-010, 91.861, 69.7894, 123.96, 69.7894, 3.95944, 69.7893, -116.04, 0.000797361, 102.997
17, 0.00000, 213.194, -33.9534, 213.193, -153.954, 213.191, 86.0464, 5.03028E-010, 90.7264, 71.471, 123.22, 71.4709, 3.21895, 71.4709, -116.78, 0.000850519, 101.832
18, 0.00000, 210.99, -34.6371, 210.989, -154.638, 210.987, 85.3627, 5.68508E-010, 90.0473, 75.507, 122.586, 75.5069, 2.58543, 75.5068, -117.414, 0.000961999, 101.127
19, 0.00000, 206.828, -35.477, 206.827, -155.478, 206.824, 84.5227, 8.15801E-010, 90.3261, 90.2316, 121.236, 90.2315, 1.23504, 90.2314, -118.764, 0.00138115, 101.328
20, 0.00000, 205.987, -35.6348, 205.986, -155.636, 205.983, 84.365, 8.69512E-010, 90.4176, 93.1271, 120.942, 93.127, 0.940986, 93.1269, -119.058, 0.00147252, 101.409
21, 0.00000, 206.547, -35.5263, 206.546, -155.527, 206.543, 84.4734, 8.32806E-010, 90.3767, 91.1713, 121.127, 91.1713, 1.12657, 91.1711, -118.872, 0.00141025, 101.382
22, 0.00000, 208.081, -35.2351, 208.079, -155.236, 208.077, 84.7647, 7.38587E-010, 90.1777, 85.8929, 121.638, 85.8929, 1.63706, 85.8927, -118.362, 0.00125036, 101.201
23, 0.00000, 210.925, -34.6575, 210.924, -154.658, 210.921, 85.3423, 5.73564E-010, 90.0075, 75.7933, 122.608, 75.7932, 2.60731, 75.7931, -117.392, 0.00096993, 101.071
24, 0.00000, 212.917, -34.2308, 212.916, -154.232, 212.914, 85.769, 4.67645E-010, 89.9003, 68.5198, 123.269, 68.5197, 3.26798, 68.5197, -116.731, 0.000790819, 101.028
25, 0.00000, 215.609, -33.6298, 215.608, -153.631, 215.606, 86.37, 3.41013E-010, 89.735, 58.462, 124.11, 58.462, 4.10958, 58.4619, -115.89, 0.000575071, 100.955
26, 0.00000, 216.984, -33.3148, 216.984, -153.315, 216.982, 86.685, 2.83402E-010, 89.5489, 53.2375, 124.539, 53.2374, 4.53856, 53.2374, -115.461, 0.000477446, 100.852
27, 0.00000, 217.931, -33.0952, 217.931, -153.096, 217.929, 86.9046, 2.46755E-010, 89.3535, 49.6126, 124.829, 49.6126, 4.82856, 49.6125, -115.171, 0.000415321, 100.751
28, 0.00000, 218.128, -33.05, 218.127, -153.051, 218.126, 86.9498, 2.39366E-010, 89.3819, 48.8643, 124.886, 48.8643, 4.88551, 48.8643, -115.114, 0.00040302, 100.73
29, 0.00000, 218.256, -33.0206, 218.255, -153.021, 218.253, 86.9793, 2.34757E-010, 89.3131, 48.3759, 124.931, 48.3759, 4.93025, 48.3759, -115.069, 0.000395156, 100.707
30, 0.00000, 217.993, -33.0292, 217.992, -153.03, 217.99, 86.9706, 2.55685E-010, 89.5943, 50.605, 124.867, 50.6049, 4.8661, 50.6049, -115.133, 0.000430527, 100.943
31, 0.00000, 218.422, -32.6493, 218.421, -152.65, 218.419, 87.3505, 2.88453E-010, 90.5605, 54.1783, 125.049, 54.1783, 5.04843, 54.1782, -114.951, 0.00048621, 101.89
32, 0.00000, 220.549, -31.5957, 220.548, -151.596, 220.546, 88.4042, 2.70011E-010, 91.8932, 52.8064, 125.971, 52.8064, 5.97053, 52.8064, -114.029, 0.000454695, 103.25
33, 0.00000, 220.757, -31.0232, 220.756, -151.024, 220.755, 88.9767, 3.02803E-010, 93.238, 56.2854, 126.321, 56.2854, 6.32051, 56.2853, -113.679, 0.000511027, 104.509
34, 0.00000, 219.931, -30.8221, 219.93, -150.823, 219.928, 89.1777, 3.65026E-010, 94.24, 61.9725, 126.269, 61.9724, 6.26802, 61.9723, -113.731, 0.000615745, 105.452
35, 0.00000, 219.718, -30.6879, 219.717, -150.689, 219.715, 89.312, 3.84829E-010, 94.636, 63.712, 126.315, 63.7119, 6.31439, 63.7118, -113.685, 0.00064966, 105.846
36, 0.00000, 218.363, -31.0346, 218.362, -151.035, 218.36, 88.9652, 4.51764E-010, 94.6636, 69.07, 125.83, 69.07, 5.82962, 69.0699, -114.17, 0.000763465, 105.837
37, 0.00000, 216.87, -31.6439, 216.868, -151.645, 216.866, 88.3559, 5.1296E-010, 94.2533, 73.5257, 125.097, 73.5257, 5.09608, 73.5256, -114.903, 0.00086739, 105.366
38, 0.00000, 217.337, -31.8529, 217.336, -151.854, 217.334, 88.1469, 4.6039E-010, 93.5933, 69.5097, 125.026, 69.5096, 5.02575, 69.5095, -114.973, 0.000777843, 104.733
39, 0.00000, 216.145, -32.5068, 216.144, -152.508, 216.141, 87.493, 4.81435E-010, 92.7724, 70.8485, 124.394, 70.8485, 4.39351, 70.8484, -115.606, 0.00081373, 103.914
40, 0.00000, 215.312, -33.0721, 215.311, -153.073, 215.309, 86.9277, 4.71791E-010, 91.8661, 69.7894, 123.96, 69.7894, 3.95944, 69.7893, -116.04, 0.000797361, 102.997
41, 0.00000, 213.194, -33.9534, 213.193, -153.954, 213.191, 86.0464, 5.03248E-010, 90.6943, 71.471, 123.22, 71.4709, 3.21895, 71.4709, -116.78, 0.000850519, 101.832
42, 0.00000, 210.99, -34.6371, 210.989, -154.638, 210.987, 85.3627, 5.69131E-010, 90.0506, 75.507, 122.586, 75.5069, 2.58543, 75.5068, -117.414, 0.000961999, 101.127
43, 0.00000, 206.828, -35.477, 206.827, -155.478, 206.824, 84.5227, 8.15809E-010, 90.3203, 90.2316, 121.236, 90.2315, 1.23504, 90.2314, -118.764, 0.00138115, 101.328
44, 0.00000, 205.987, -35.6348, 205.986, -155.636, 205.983, 84.365, 8.69511E-010, 90.4097, 93.1271, 120.942, 93.127, 0.940986, 93.1269, -119.058, 0.00147252, 101.409
45, 0.00000, 206.547, -35.5263, 206.546, -155.527, 206.543, 84.4734, 8.32982E-010, 90.3846, 91.1713, 121.127, 91.1713, 1.12657, 91.1711, -118.872, 0.00141025, 101.382
46, 0.00000, 208.081, -35.2351, 208.079, -155.236, 208.077, 84.7647, 7.38711E-010, 90.1753, 85.8929, 121.638, 85.8929, 1.63706, 85.8927, -118.362, 0.00125036, 101.201
47, 0.00000, 210.925, -34.6575, 210.924, -154.658, 210.921, 85.3423, 5.734E-010, 89.9888, 75.7933, 122.608, 75.7932, 2.60731, 75.7931, -117.392, 0.00096993, 101.071
48, 0.00000, 212.917, -34.2308, 212.916, -154.232, 212.914, 85.769, 4.67969E-010, 89.8865, 68.5198, 123.269, 68.5197, 3.26798, 68.5197, -116.731, 0.000790819, 101.028
48, 0.00000, 212.917, -34.2308, 212.916, -154.232, 212.914, 85.769, 4.67969E-010, 89.8865, 68.5198, 123.269, 68.5197, 3.26798, 68.5197, -116.731, 0.000790819, 101.028
